
T2120 000:023 SEGGER J-Link V6.00e Log File (0000ms, 0013ms total)
T2120 000:023 DLL Compiled: Aug  4 2016 09:37:38 (0000ms, 0013ms total)
T2120 000:023 Logging started @ 2019-02-25 08:05 (0000ms, 0013ms total)
T2120 000:023 JLINK_SetWarnOutHandler(...) (0000ms, 0013ms total)
T2120 000:023 JLINK_OpenEx(...)
Firmware: J-Link ARM V8 compiled Nov 28 2014 13:44:46
Hardware: V8.00
Feature(s): RDI,FlashDL,FlashBP,JFlash,GDBFULL  returns O.K. (0012ms, 0025ms total)
T2120 000:035 JLINK_SetErrorOutHandler(...) (0000ms, 0025ms total)
T2120 000:035 JLINK_ExecCommand("ProjectFile = "G:\wkf\xiaopin\stm32l151_xiaopin\stm32c8t6\MDK-ARM\JLinkSettings.ini"", ...).   returns 0x00 (0076ms, 0101ms total)
T2120 000:113 JLINK_ExecCommand("Device = STM32L151C8xxA", ...). Device "STM32L151C8-A" selected.  returns 0x00 (0003ms, 0104ms total)
T2120 000:116 JLINK_ExecCommand("DisableConnectionTimeout", ...).   returns 0x01 (0000ms, 0104ms total)
T2120 000:116 JLINK_GetHardwareVersion()  returns 0x13880 (0000ms, 0104ms total)
T2120 000:116 JLINK_GetDLLVersion()  returns 60005 (0000ms, 0104ms total)
T2120 000:116 JLINK_GetFirmwareString(...) (0000ms, 0104ms total)
T2120 000:122 JLINK_GetDLLVersion()  returns 60005 (0000ms, 0104ms total)
T2120 000:122 JLINK_GetCompileDateTime() (0000ms, 0104ms total)
T2120 000:124 JLINK_GetFirmwareString(...) (0000ms, 0104ms total)
T2120 000:126 JLINK_GetHardwareVersion()  returns 0x13880 (0000ms, 0104ms total)
T2120 000:132 JLINK_TIF_Select(JLINKARM_TIF_SWD)  returns 0x00 (0001ms, 0105ms total)
T2120 000:133 JLINK_SetSpeed(5000) (0000ms, 0105ms total)
T2120 000:133 JLINK_GetId() >0x108 TIF>Found SWD-DP with ID 0x2BA01477 >0x0D TIF> >0x28 TIF> >0x0D TIF> >0x28 TIF> >0x0D TIF> >0x28 TIF> >0x0D TIF> >0x28 TIF> >0x0D TIF> >0x21 TIF> >0x0D TIF> >0x28 TIF> >0x0D TIF> >0x28 TIF> >0x0D TIF> >0x28 TIF> >0x0D TIF> >0x21 TIF> >0x0D TIF> >0x21 TIF> >0x0D TIF> >0x28 TIF> >0x0D TIF> >0x21 TIF> >0x0D TIF> >0x21 TIF> >0x0D TIF> >0x28 TIF> >0x0D TIF> >0x28 TIF> >0x0D TIF> >0x28 TIF> >0x0D TIF> >0x21 TIF> >0x0D TIF> >0x21 TIF> >0x0D TIF> >0x28 TIF> >0x0D TIF>
 >0x28 TIF> >0x0D TIF> >0x28 TIF> >0x0D TIF> >0x21 TIF> >0x0D TIF> >0x21 TIF> >0x0D TIF> >0x28 TIF> >0x0D TIF> >0x21 TIF> >0x0D TIF> >0x21 TIF> >0x0D TIF> >0x28 TIF> >0x0D TIF> >0x21 TIF> >0x0D TIF> >0x21 TIF> >0x0D TIF> >0x28 TIF> >0x0D TIF> >0x21 TIF> >0x0D TIF> >0x21 TIF> >0x0D TIF> >0x28 TIF> >0x0D TIF> >0x21 TIF> >0x0D TIF> >0x21 TIF> >0x0D TIF> >0x28 TIF> >0x0D TIF> >0x21 TIF> >0x0D TIF> >0x21 TIF> >0x0D TIF> >0x28 TIF> >0x0D TIF> >0x21 TIF> >0x0D TIF> >0x21 TIF> >0x108 TIF>
Found SWD-DP with ID 0x2BA01477 >0x0D TIF> >0x28 TIF> >0x0D TIF> >0x28 TIF> >0x0D TIF> >0x28 TIF> >0x0D TIF> >0x28 TIF> >0x0D TIF> >0x21 TIF> >0x0D TIF> >0x28 TIF> >0x0D TIF> >0x28 TIF> >0x0D TIF> >0x21 TIF> >0x0D TIF> >0x21 TIF> >0x0D TIF> >0x21 TIF>AP-IDR: 0x24770011, Type: AHB-AP >0x0D TIF> >0x28 TIF> >0x0D TIF> >0x28 TIF> >0x0D TIF> >0x28 TIF> >0x0D TIF> >0x21 TIF> >0x0D TIF> >0x21 TIF> >0x0D TIF> >0x28 TIF> >0x0D TIF> >0x21 TIF> >0x0D TIF> >0x21 TIF>Found Cortex-M3 r2p0, Little endian.
 -- CPU_ReadMem(4 bytes @ 0xE000EDF0) -- CPU_WriteMem(4 bytes @ 0xE000EDF0) -- CPU_ReadMem(4 bytes @ 0xE0002000)FPUnit: 6 code (BP) slots and 2 literal slots -- CPU_ReadMem(4 bytes @ 0xE000EDFC) -- CPU_WriteMem(4 bytes @ 0xE000EDFC) -- CPU_ReadMem(4 bytes @ 0xE0001000) -- CPU_WriteMem(4 bytes @ 0xE0001000) -- CPU_ReadMem(4 bytes @ 0xE000ED88) -- CPU_WriteMem(4 bytes @ 0xE000ED88) -- CPU_ReadMem(4 bytes @ 0xE000ED88) -- CPU_WriteMem(4 bytes @ 0xE000ED88)CoreSight components:ROMTbl 0 @ E00FF000
 -- CPU_ReadMem(16 bytes @ 0xE00FF000) -- CPU_ReadMem(16 bytes @ 0xE000EFF0) -- CPU_ReadMem(16 bytes @ 0xE000EFE0)ROMTbl 0 [0]: FFF0F000, CID: B105E00D, PID: 002BB000 SCS -- CPU_ReadMem(16 bytes @ 0xE0001FF0) -- CPU_ReadMem(16 bytes @ 0xE0001FE0)ROMTbl 0 [1]: FFF02000, CID: B105E00D, PID: 002BB002 DWT -- CPU_ReadMem(16 bytes @ 0xE0002FF0) -- CPU_ReadMem(16 bytes @ 0xE0002FE0)ROMTbl 0 [2]: FFF03000, CID: B105E00D, PID: 002BB003 FPB -- CPU_ReadMem(16 bytes @ 0xE0000FF0)
 -- CPU_ReadMem(16 bytes @ 0xE0000FE0)ROMTbl 0 [3]: FFF01000, CID: B105E00D, PID: 002BB001 ITM -- CPU_ReadMem(16 bytes @ 0xE00FF010) -- CPU_ReadMem(16 bytes @ 0xE0040FF0) -- CPU_ReadMem(16 bytes @ 0xE0040FE0)ROMTbl 0 [4]: FFF41000, CID: B105900D, PID: 002BB923 TPIU-Lite -- CPU_ReadMem(16 bytes @ 0xE0041FF0) -- CPU_ReadMem(16 bytes @ 0xE0041FE0)ROMTbl 0 [5]: FFF42000, CID: B105900D, PID: 002BB924 ETM-M3 >0x0D TIF> >0x21 TIF>  returns 0x2BA01477 (0072ms, 0177ms total)
T2120 000:206 JLINK_GetDLLVersion()  returns 60005 (0000ms, 0177ms total)
T2120 000:206 JLINK_CORE_GetFound()  returns 0x30000FF (0000ms, 0177ms total)
T2120 000:206 JLINK_GetDebugInfo(0x100) -- Value=0xE00FF000  returns 0x00 (0000ms, 0177ms total)
T2120 000:207 JLINK_GetDebugInfo(0x100) -- Value=0xE00FF000  returns 0x00 (0000ms, 0177ms total)
T2120 000:207 JLINK_GetDebugInfo(0x101) -- Value=0xE0041000  returns 0x00 (0000ms, 0177ms total)
T2120 000:207 JLINK_GetDebugInfo(0x102) -- Value=0x00000000  returns 0x00 (0000ms, 0177ms total)
T2120 000:207 JLINK_GetDebugInfo(0x103) -- Value=0xE0040000  returns 0x00 (0000ms, 0177ms total)
T2120 000:207 JLINK_GetDebugInfo(0x104) -- Value=0xE0000000  returns 0x00 (0000ms, 0177ms total)
T2120 000:207 JLINK_GetDebugInfo(0x105) -- Value=0xE0001000  returns 0x00 (0000ms, 0177ms total)
T2120 000:207 JLINK_GetDebugInfo(0x106) -- Value=0xE0002000  returns 0x00 (0000ms, 0177ms total)
T2120 000:207 JLINK_GetDebugInfo(0x107) -- Value=0xE000E000  returns 0x00 (0000ms, 0177ms total)
T2120 000:207 JLINK_GetDebugInfo(0x10C) -- Value=0xE000EDF0  returns 0x00 (0000ms, 0177ms total)
T2120 000:207 JLINK_ReadMemU32(0xE000ED00, 0x0001 Items, ...) -- CPU is running -- CPU_ReadMem(4 bytes @ 0xE000ED00) - Data: 30 C2 2F 41  returns 0x01 (0001ms, 0178ms total)
T2120 000:208 JLINK_SetResetType(JLINKARM_RESET_TYPE_NORMAL)  returns JLINKARM_RESET_TYPE_NORMAL (0000ms, 0178ms total)
T2120 000:208 JLINK_Reset() -- CPU is running -- CPU_WriteMem(4 bytes @ 0xE000EDF0) -- CPU is running -- CPU_WriteMem(4 bytes @ 0xE000EDFC) >0x35 TIF> -- CPU is running -- CPU_WriteMem(4 bytes @ 0xE000ED0C) -- CPU is running -- CPU_ReadMem(4 bytes @ 0xE000EDF0) -- CPU is running -- CPU_ReadMem(4 bytes @ 0xE000EDF0) -- CPU is running -- CPU_WriteMem(4 bytes @ 0xE000EDF0) -- CPU is running -- CPU_WriteMem(4 bytes @ 0xE000EDFC) -- CPU is running -- CPU_ReadMem(4 bytes @ 0xE000EDF0)
 -- CPU_WriteMem(4 bytes @ 0xE0002000) -- CPU_ReadMem(4 bytes @ 0xE000EDFC) -- CPU_ReadMem(4 bytes @ 0xE0001000) (0019ms, 0197ms total)
T2120 000:227 JLINK_Halt()  returns 0x00 (0000ms, 0197ms total)
T2120 000:227 JLINK_IsHalted()  returns TRUE (0000ms, 0197ms total)
T2120 000:227 JLINK_ReadMemU32(0xE000EDF0, 0x0001 Items, ...) -- CPU_ReadMem(4 bytes @ 0xE000EDF0) - Data: 03 00 03 00  returns 0x01 (0000ms, 0197ms total)
T2120 000:227 JLINK_WriteU32(0xE000EDF0, 0xA05F0003) -- CPU_WriteMem(4 bytes @ 0xE000EDF0)  returns 0x00 (0000ms, 0197ms total)
T2120 000:227 JLINK_WriteU32(0xE000EDFC, 0x01000000) -- CPU_WriteMem(4 bytes @ 0xE000EDFC)  returns 0x00 (0001ms, 0198ms total)
T2120 000:237 JLINK_GetHWStatus(...)  returns 0x00 (0000ms, 0198ms total)
T2120 000:244 JLINK_GetNumBPUnits(Type = 0xFFFFFF00)  returns 0x06 (0000ms, 0198ms total)
T2120 000:244 JLINK_GetNumBPUnits(Type = 0xF0)  returns 0x2000 (0000ms, 0198ms total)
T2120 000:244 JLINK_GetNumWPUnits()  returns 0x04 (0000ms, 0198ms total)
T2120 000:250 JLINK_GetSpeed()  returns 0xFA0 (0000ms, 0198ms total)
T2120 000:254 JLINK_ReadMemU32(0xE000E004, 0x0001 Items, ...) -- CPU_ReadMem(4 bytes @ 0xE000E004) - Data: 01 00 00 00  returns 0x01 (0000ms, 0198ms total)
T2120 000:254 JLINK_ReadMemU32(0xE000E004, 0x0001 Items, ...) -- CPU_ReadMem(4 bytes @ 0xE000E004) - Data: 01 00 00 00  returns 0x01 (0001ms, 0199ms total)
T2120 000:255 JLINK_WriteMem(0xE0001000, 0x001C Bytes, ...) - Data: 01 00 00 00 00 00 00 00 00 00 00 00 00 00 00 00 ... -- CPU_WriteMem(28 bytes @ 0xE0001000)  returns 0x1C (0001ms, 0200ms total)
T2120 000:256 JLINK_ReadMem (0xE0001000, 0x001C Bytes, ...) -- CPU_ReadMem(28 bytes @ 0xE0001000) - Data: 01 00 00 40 00 00 00 00 00 00 00 00 00 00 00 00 ...  returns 0x00 (0000ms, 0200ms total)
T2120 000:256 JLINK_Halt()  returns 0x00 (0000ms, 0200ms total)
T2120 000:256 JLINK_IsHalted()  returns TRUE (0000ms, 0200ms total)
T2120 000:259 JLINK_WriteMem(0x20000000, 0x0218 Bytes, ...) - Data: 00 BE 0A E0 0D 78 2D 06 68 40 08 24 40 00 00 D3 ... -- CPU_WriteMem(536 bytes @ 0x20000000)  returns 0x218 (0005ms, 0205ms total)
T2120 000:264 JLINK_WriteReg(R0, 0x08000000)  returns 0x00 (0000ms, 0205ms total)
T2120 000:264 JLINK_WriteReg(R1, 0x01E84800)  returns 0x00 (0000ms, 0205ms total)
T2120 000:264 JLINK_WriteReg(R2, 0x00000001)  returns 0x00 (0000ms, 0205ms total)
T2120 000:264 JLINK_WriteReg(R3, 0x00000000)  returns 0x00 (0000ms, 0205ms total)
T2120 000:264 JLINK_WriteReg(R4, 0x00000000)  returns 0x00 (0000ms, 0205ms total)
T2120 000:264 JLINK_WriteReg(R5, 0x00000000)  returns 0x00 (0000ms, 0205ms total)
T2120 000:264 JLINK_WriteReg(R6, 0x00000000)  returns 0x00 (0000ms, 0205ms total)
T2120 000:264 JLINK_WriteReg(R7, 0x00000000)  returns 0x00 (0000ms, 0205ms total)
T2120 000:264 JLINK_WriteReg(R8, 0x00000000)  returns 0x00 (0000ms, 0205ms total)
T2120 000:264 JLINK_WriteReg(R9, 0x20000214)  returns 0x00 (0000ms, 0205ms total)
T2120 000:264 JLINK_WriteReg(R10, 0x00000000)  returns 0x00 (0000ms, 0205ms total)
T2120 000:264 JLINK_WriteReg(R11, 0x00000000)  returns 0x00 (0000ms, 0205ms total)
T2120 000:264 JLINK_WriteReg(R12, 0x00000000)  returns 0x00 (0000ms, 0205ms total)
T2120 000:264 JLINK_WriteReg(R13 (SP), 0x20001000)  returns 0x00 (0000ms, 0205ms total)
T2120 000:264 JLINK_WriteReg(R14, 0x20000001)  returns 0x00 (0000ms, 0205ms total)
T2120 000:264 JLINK_WriteReg(R15 (PC), 0x20000020)  returns 0x00 (0000ms, 0205ms total)
T2120 000:264 JLINK_WriteReg(XPSR, 0x01000000)  returns 0x00 (0000ms, 0205ms total)
T2120 000:264 JLINK_WriteReg(MSP, 0x20001000)  returns 0x00 (0000ms, 0205ms total)
T2120 000:264 JLINK_WriteReg(PSP, 0x20001000)  returns 0x00 (0000ms, 0205ms total)
T2120 000:264 JLINK_WriteReg(CFBP, 0x00000000)  returns 0x00 (0000ms, 0205ms total)
T2120 000:264 JLINK_SetBPEx(Addr = 0x20000000, Type = 0xFFFFFFF2) -- CPU_ReadMem(2 bytes @ 0x20000000)  returns 0x00000001 (0000ms, 0205ms total)
T2120 000:264 JLINK_Go() -- CPU_WriteMem(2 bytes @ 0x20000000) -- CPU_ReadMem(4 bytes @ 0xE0001000) -- CPU_WriteMem(4 bytes @ 0xE0002008) -- CPU_WriteMem(4 bytes @ 0xE000200C) -- CPU_WriteMem(4 bytes @ 0xE0002010) -- CPU_WriteMem(4 bytes @ 0xE0002014) -- CPU_WriteMem(4 bytes @ 0xE0002018) -- CPU_WriteMem(4 bytes @ 0xE000201C) -- CPU_WriteMem(4 bytes @ 0xE0001004) (0006ms, 0211ms total)
T2120 000:270 JLINK_IsHalted() -- CPU_ReadMem(2 bytes @ 0x20000000)  returns TRUE (0003ms, 0214ms total)
T2120 000:273 JLINK_ReadReg(R15 (PC))  returns 0x20000000 (0000ms, 0211ms total)
T2120 000:273 JLINK_ClrBPEx(BPHandle = 0x00000001)  returns 0x00 (0000ms, 0211ms total)
T2120 000:273 JLINK_ReadReg(R0)  returns 0x00000000 (0000ms, 0211ms total)
T2120 000:273 JLINK_WriteReg(R0, 0x08000000)  returns 0x00 (0000ms, 0211ms total)
T2120 000:273 JLINK_WriteReg(R1, 0x00000100)  returns 0x00 (0000ms, 0211ms total)
T2120 000:273 JLINK_WriteReg(R2, 0x00000000)  returns 0x00 (0000ms, 0211ms total)
T2120 000:273 JLINK_WriteReg(R3, 0x00000000)  returns 0x00 (0000ms, 0211ms total)
T2120 000:273 JLINK_WriteReg(R4, 0x00000000)  returns 0x00 (0000ms, 0211ms total)
T2120 000:273 JLINK_WriteReg(R5, 0x00000000)  returns 0x00 (0000ms, 0211ms total)
T2120 000:273 JLINK_WriteReg(R6, 0x00000000)  returns 0x00 (0000ms, 0211ms total)
T2120 000:273 JLINK_WriteReg(R7, 0x00000000)  returns 0x00 (0000ms, 0211ms total)
T2120 000:273 JLINK_WriteReg(R8, 0x00000000)  returns 0x00 (0000ms, 0211ms total)
T2120 000:273 JLINK_WriteReg(R9, 0x20000214)  returns 0x00 (0000ms, 0211ms total)
T2120 000:273 JLINK_WriteReg(R10, 0x00000000)  returns 0x00 (0000ms, 0211ms total)
T2120 000:273 JLINK_WriteReg(R11, 0x00000000)  returns 0x00 (0000ms, 0211ms total)
T2120 000:273 JLINK_WriteReg(R12, 0x00000000)  returns 0x00 (0000ms, 0211ms total)
T2120 000:273 JLINK_WriteReg(R13 (SP), 0x20001000)  returns 0x00 (0000ms, 0211ms total)
T2120 000:273 JLINK_WriteReg(R14, 0x20000001)  returns 0x00 (0000ms, 0211ms total)
T2120 000:273 JLINK_WriteReg(R15 (PC), 0x200000FA)  returns 0x00 (0000ms, 0211ms total)
T2120 000:273 JLINK_WriteReg(XPSR, 0x01000000)  returns 0x00 (0000ms, 0211ms total)
T2120 000:273 JLINK_WriteReg(MSP, 0x20001000)  returns 0x00 (0000ms, 0211ms total)
T2120 000:273 JLINK_WriteReg(PSP, 0x20001000)  returns 0x00 (0000ms, 0211ms total)
T2120 000:273 JLINK_WriteReg(CFBP, 0x00000000)  returns 0x00 (0000ms, 0211ms total)
T2120 000:273 JLINK_SetBPEx(Addr = 0x20000000, Type = 0xFFFFFFF2)  returns 0x00000002 (0000ms, 0211ms total)
T2120 000:273 JLINK_Go() -- CPU_ReadMem(4 bytes @ 0xE0001000) (0002ms, 0213ms total)
T2120 000:275 JLINK_IsHalted() -- CPU_ReadMem(2 bytes @ 0x20000000)  returns TRUE (0003ms, 0216ms total)
T2120 000:278 JLINK_ReadReg(R15 (PC))  returns 0x20000000 (0000ms, 0213ms total)
T2120 000:278 JLINK_ClrBPEx(BPHandle = 0x00000002)  returns 0x00 (0000ms, 0213ms total)
T2120 000:278 JLINK_ReadReg(R0)  returns 0x00000001 (0000ms, 0213ms total)
T2120 000:278 JLINK_WriteReg(R0, 0x08000000)  returns 0x00 (0000ms, 0213ms total)
T2120 000:278 JLINK_WriteReg(R1, 0x00000100)  returns 0x00 (0000ms, 0213ms total)
T2120 000:278 JLINK_WriteReg(R2, 0x00000000)  returns 0x00 (0000ms, 0213ms total)
T2120 000:278 JLINK_WriteReg(R3, 0x00000000)  returns 0x00 (0000ms, 0213ms total)
T2120 000:278 JLINK_WriteReg(R4, 0x00000000)  returns 0x00 (0000ms, 0213ms total)
T2120 000:278 JLINK_WriteReg(R5, 0x00000000)  returns 0x00 (0000ms, 0213ms total)
T2120 000:278 JLINK_WriteReg(R6, 0x00000000)  returns 0x00 (0000ms, 0213ms total)
T2120 000:278 JLINK_WriteReg(R7, 0x00000000)  returns 0x00 (0000ms, 0213ms total)
T2120 000:278 JLINK_WriteReg(R8, 0x00000000)  returns 0x00 (0000ms, 0213ms total)
T2120 000:278 JLINK_WriteReg(R9, 0x20000214)  returns 0x00 (0000ms, 0213ms total)
T2120 000:278 JLINK_WriteReg(R10, 0x00000000)  returns 0x00 (0000ms, 0213ms total)
T2120 000:278 JLINK_WriteReg(R11, 0x00000000)  returns 0x00 (0000ms, 0213ms total)
T2120 000:278 JLINK_WriteReg(R12, 0x00000000)  returns 0x00 (0000ms, 0213ms total)
T2120 000:278 JLINK_WriteReg(R13 (SP), 0x20001000)  returns 0x00 (0000ms, 0213ms total)
T2120 000:278 JLINK_WriteReg(R14, 0x20000001)  returns 0x00 (0000ms, 0213ms total)
T2120 000:278 JLINK_WriteReg(R15 (PC), 0x200000A8)  returns 0x00 (0000ms, 0213ms total)
T2120 000:278 JLINK_WriteReg(XPSR, 0x01000000)  returns 0x00 (0000ms, 0213ms total)
T2120 000:278 JLINK_WriteReg(MSP, 0x20001000)  returns 0x00 (0000ms, 0213ms total)
T2120 000:278 JLINK_WriteReg(PSP, 0x20001000)  returns 0x00 (0000ms, 0213ms total)
T2120 000:278 JLINK_WriteReg(CFBP, 0x00000000)  returns 0x00 (0000ms, 0213ms total)
T2120 000:278 JLINK_SetBPEx(Addr = 0x20000000, Type = 0xFFFFFFF2)  returns 0x00000003 (0000ms, 0213ms total)
T2120 000:278 JLINK_Go() -- CPU_ReadMem(4 bytes @ 0xE0001000) (0002ms, 0215ms total)
T2120 000:280 JLINK_IsHalted()  returns FALSE (0000ms, 0215ms total)
T2120 000:318 JLINK_IsHalted() -- CPU_ReadMem(2 bytes @ 0x20000000)  returns TRUE (0002ms, 0217ms total)
T2120 000:320 JLINK_ReadReg(R15 (PC))  returns 0x20000000 (0000ms, 0215ms total)
T2120 000:320 JLINK_ClrBPEx(BPHandle = 0x00000003)  returns 0x00 (0000ms, 0215ms total)
T2120 000:320 JLINK_ReadReg(R0)  returns 0x00000000 (0000ms, 0215ms total)
T2120 000:321 JLINK_WriteReg(R0, 0x08000100)  returns 0x00 (0000ms, 0215ms total)
T2120 000:321 JLINK_WriteReg(R1, 0x00000100)  returns 0x00 (0000ms, 0215ms total)
T2120 000:321 JLINK_WriteReg(R2, 0x00000000)  returns 0x00 (0000ms, 0215ms total)
T2120 000:321 JLINK_WriteReg(R3, 0x00000000)  returns 0x00 (0000ms, 0215ms total)
T2120 000:321 JLINK_WriteReg(R4, 0x00000000)  returns 0x00 (0000ms, 0215ms total)
T2120 000:321 JLINK_WriteReg(R5, 0x00000000)  returns 0x00 (0000ms, 0215ms total)
T2120 000:321 JLINK_WriteReg(R6, 0x00000000)  returns 0x00 (0000ms, 0215ms total)
T2120 000:321 JLINK_WriteReg(R7, 0x00000000)  returns 0x00 (0000ms, 0215ms total)
T2120 000:321 JLINK_WriteReg(R8, 0x00000000)  returns 0x00 (0000ms, 0215ms total)
T2120 000:321 JLINK_WriteReg(R9, 0x20000214)  returns 0x00 (0000ms, 0215ms total)
T2120 000:321 JLINK_WriteReg(R10, 0x00000000)  returns 0x00 (0000ms, 0215ms total)
T2120 000:321 JLINK_WriteReg(R11, 0x00000000)  returns 0x00 (0000ms, 0215ms total)
T2120 000:321 JLINK_WriteReg(R12, 0x00000000)  returns 0x00 (0000ms, 0215ms total)
T2120 000:321 JLINK_WriteReg(R13 (SP), 0x20001000)  returns 0x00 (0000ms, 0215ms total)
T2120 000:321 JLINK_WriteReg(R14, 0x20000001)  returns 0x00 (0000ms, 0215ms total)
T2120 000:321 JLINK_WriteReg(R15 (PC), 0x200000FA)  returns 0x00 (0000ms, 0215ms total)
T2120 000:321 JLINK_WriteReg(XPSR, 0x01000000)  returns 0x00 (0000ms, 0215ms total)
T2120 000:321 JLINK_WriteReg(MSP, 0x20001000)  returns 0x00 (0000ms, 0215ms total)
T2120 000:321 JLINK_WriteReg(PSP, 0x20001000)  returns 0x00 (0000ms, 0215ms total)
T2120 000:321 JLINK_WriteReg(CFBP, 0x00000000)  returns 0x00 (0000ms, 0215ms total)
T2120 000:321 JLINK_SetBPEx(Addr = 0x20000000, Type = 0xFFFFFFF2)  returns 0x00000004 (0000ms, 0215ms total)
T2120 000:321 JLINK_Go() -- CPU_ReadMem(4 bytes @ 0xE0001000) (0003ms, 0218ms total)
T2120 000:324 JLINK_IsHalted() -- CPU_ReadMem(2 bytes @ 0x20000000)  returns TRUE (0003ms, 0221ms total)
T2120 000:327 JLINK_ReadReg(R15 (PC))  returns 0x20000000 (0000ms, 0218ms total)
T2120 000:327 JLINK_ClrBPEx(BPHandle = 0x00000004)  returns 0x00 (0000ms, 0218ms total)
T2120 000:327 JLINK_ReadReg(R0)  returns 0x00000001 (0000ms, 0218ms total)
T2120 000:327 JLINK_WriteReg(R0, 0x08000100)  returns 0x00 (0000ms, 0218ms total)
T2120 000:327 JLINK_WriteReg(R1, 0x00000100)  returns 0x00 (0000ms, 0218ms total)
T2120 000:327 JLINK_WriteReg(R2, 0x00000000)  returns 0x00 (0000ms, 0218ms total)
T2120 000:327 JLINK_WriteReg(R3, 0x00000000)  returns 0x00 (0000ms, 0218ms total)
T2120 000:327 JLINK_WriteReg(R4, 0x00000000)  returns 0x00 (0000ms, 0218ms total)
T2120 000:327 JLINK_WriteReg(R5, 0x00000000)  returns 0x00 (0000ms, 0218ms total)
T2120 000:327 JLINK_WriteReg(R6, 0x00000000)  returns 0x00 (0000ms, 0218ms total)
T2120 000:327 JLINK_WriteReg(R7, 0x00000000)  returns 0x00 (0000ms, 0218ms total)
T2120 000:327 JLINK_WriteReg(R8, 0x00000000)  returns 0x00 (0000ms, 0218ms total)
T2120 000:327 JLINK_WriteReg(R9, 0x20000214)  returns 0x00 (0000ms, 0218ms total)
T2120 000:327 JLINK_WriteReg(R10, 0x00000000)  returns 0x00 (0000ms, 0218ms total)
T2120 000:327 JLINK_WriteReg(R11, 0x00000000)  returns 0x00 (0000ms, 0218ms total)
T2120 000:327 JLINK_WriteReg(R12, 0x00000000)  returns 0x00 (0000ms, 0218ms total)
T2120 000:327 JLINK_WriteReg(R13 (SP), 0x20001000)  returns 0x00 (0000ms, 0218ms total)
T2120 000:327 JLINK_WriteReg(R14, 0x20000001)  returns 0x00 (0000ms, 0218ms total)
T2120 000:327 JLINK_WriteReg(R15 (PC), 0x200000A8)  returns 0x00 (0000ms, 0218ms total)
T2120 000:327 JLINK_WriteReg(XPSR, 0x01000000)  returns 0x00 (0000ms, 0218ms total)
T2120 000:327 JLINK_WriteReg(MSP, 0x20001000)  returns 0x00 (0000ms, 0218ms total)
T2120 000:327 JLINK_WriteReg(PSP, 0x20001000)  returns 0x00 (0000ms, 0218ms total)
T2120 000:327 JLINK_WriteReg(CFBP, 0x00000000)  returns 0x00 (0000ms, 0218ms total)
T2120 000:327 JLINK_SetBPEx(Addr = 0x20000000, Type = 0xFFFFFFF2)  returns 0x00000005 (0000ms, 0218ms total)
T2120 000:327 JLINK_Go() -- CPU_ReadMem(4 bytes @ 0xE0001000) (0003ms, 0221ms total)
T2120 000:330 JLINK_IsHalted()  returns FALSE (0000ms, 0221ms total)
T2120 000:335 JLINK_IsHalted() -- CPU_ReadMem(2 bytes @ 0x20000000)  returns TRUE (0004ms, 0225ms total)
T2120 000:339 JLINK_ReadReg(R15 (PC))  returns 0x20000000 (0000ms, 0221ms total)
T2120 000:339 JLINK_ClrBPEx(BPHandle = 0x00000005)  returns 0x00 (0000ms, 0221ms total)
T2120 000:339 JLINK_ReadReg(R0)  returns 0x00000000 (0000ms, 0221ms total)
T2120 000:339 JLINK_WriteReg(R0, 0x08000200)  returns 0x00 (0000ms, 0221ms total)
T2120 000:339 JLINK_WriteReg(R1, 0x00000100)  returns 0x00 (0000ms, 0221ms total)
T2120 000:339 JLINK_WriteReg(R2, 0x00000000)  returns 0x00 (0000ms, 0221ms total)
T2120 000:339 JLINK_WriteReg(R3, 0x00000000)  returns 0x00 (0000ms, 0221ms total)
T2120 000:339 JLINK_WriteReg(R4, 0x00000000)  returns 0x00 (0000ms, 0221ms total)
T2120 000:339 JLINK_WriteReg(R5, 0x00000000)  returns 0x00 (0000ms, 0221ms total)
T2120 000:339 JLINK_WriteReg(R6, 0x00000000)  returns 0x00 (0000ms, 0221ms total)
T2120 000:339 JLINK_WriteReg(R7, 0x00000000)  returns 0x00 (0000ms, 0221ms total)
T2120 000:339 JLINK_WriteReg(R8, 0x00000000)  returns 0x00 (0000ms, 0221ms total)
T2120 000:339 JLINK_WriteReg(R9, 0x20000214)  returns 0x00 (0000ms, 0221ms total)
T2120 000:339 JLINK_WriteReg(R10, 0x00000000)  returns 0x00 (0000ms, 0221ms total)
T2120 000:339 JLINK_WriteReg(R11, 0x00000000)  returns 0x00 (0000ms, 0221ms total)
T2120 000:339 JLINK_WriteReg(R12, 0x00000000)  returns 0x00 (0000ms, 0221ms total)
T2120 000:339 JLINK_WriteReg(R13 (SP), 0x20001000)  returns 0x00 (0000ms, 0221ms total)
T2120 000:339 JLINK_WriteReg(R14, 0x20000001)  returns 0x00 (0000ms, 0221ms total)
T2120 000:339 JLINK_WriteReg(R15 (PC), 0x200000FA)  returns 0x00 (0000ms, 0221ms total)
T2120 000:339 JLINK_WriteReg(XPSR, 0x01000000)  returns 0x00 (0000ms, 0221ms total)
T2120 000:339 JLINK_WriteReg(MSP, 0x20001000)  returns 0x00 (0000ms, 0221ms total)
T2120 000:339 JLINK_WriteReg(PSP, 0x20001000)  returns 0x00 (0000ms, 0221ms total)
T2120 000:339 JLINK_WriteReg(CFBP, 0x00000000)  returns 0x00 (0000ms, 0221ms total)
T2120 000:339 JLINK_SetBPEx(Addr = 0x20000000, Type = 0xFFFFFFF2)  returns 0x00000006 (0000ms, 0221ms total)
T2120 000:339 JLINK_Go() -- CPU_ReadMem(4 bytes @ 0xE0001000) (0002ms, 0223ms total)
T2120 000:341 JLINK_IsHalted() -- CPU_ReadMem(2 bytes @ 0x20000000)  returns TRUE (0003ms, 0226ms total)
T2120 000:344 JLINK_ReadReg(R15 (PC))  returns 0x20000000 (0000ms, 0223ms total)
T2120 000:344 JLINK_ClrBPEx(BPHandle = 0x00000006)  returns 0x00 (0000ms, 0223ms total)
T2120 000:344 JLINK_ReadReg(R0)  returns 0x00000001 (0000ms, 0223ms total)
T2120 000:344 JLINK_WriteReg(R0, 0x08000200)  returns 0x00 (0000ms, 0223ms total)
T2120 000:344 JLINK_WriteReg(R1, 0x00000100)  returns 0x00 (0000ms, 0223ms total)
T2120 000:344 JLINK_WriteReg(R2, 0x00000000)  returns 0x00 (0000ms, 0223ms total)
T2120 000:344 JLINK_WriteReg(R3, 0x00000000)  returns 0x00 (0000ms, 0223ms total)
T2120 000:344 JLINK_WriteReg(R4, 0x00000000)  returns 0x00 (0000ms, 0223ms total)
T2120 000:344 JLINK_WriteReg(R5, 0x00000000)  returns 0x00 (0000ms, 0223ms total)
T2120 000:344 JLINK_WriteReg(R6, 0x00000000)  returns 0x00 (0000ms, 0223ms total)
T2120 000:344 JLINK_WriteReg(R7, 0x00000000)  returns 0x00 (0000ms, 0223ms total)
T2120 000:344 JLINK_WriteReg(R8, 0x00000000)  returns 0x00 (0000ms, 0223ms total)
T2120 000:344 JLINK_WriteReg(R9, 0x20000214)  returns 0x00 (0000ms, 0223ms total)
T2120 000:344 JLINK_WriteReg(R10, 0x00000000)  returns 0x00 (0000ms, 0223ms total)
T2120 000:344 JLINK_WriteReg(R11, 0x00000000)  returns 0x00 (0000ms, 0223ms total)
T2120 000:344 JLINK_WriteReg(R12, 0x00000000)  returns 0x00 (0000ms, 0223ms total)
T2120 000:344 JLINK_WriteReg(R13 (SP), 0x20001000)  returns 0x00 (0000ms, 0223ms total)
T2120 000:344 JLINK_WriteReg(R14, 0x20000001)  returns 0x00 (0000ms, 0223ms total)
T2120 000:344 JLINK_WriteReg(R15 (PC), 0x200000A8)  returns 0x00 (0000ms, 0223ms total)
T2120 000:344 JLINK_WriteReg(XPSR, 0x01000000)  returns 0x00 (0000ms, 0223ms total)
T2120 000:344 JLINK_WriteReg(MSP, 0x20001000)  returns 0x00 (0000ms, 0223ms total)
T2120 000:344 JLINK_WriteReg(PSP, 0x20001000)  returns 0x00 (0000ms, 0223ms total)
T2120 000:344 JLINK_WriteReg(CFBP, 0x00000000)  returns 0x00 (0000ms, 0223ms total)
T2120 000:344 JLINK_SetBPEx(Addr = 0x20000000, Type = 0xFFFFFFF2)  returns 0x00000007 (0000ms, 0223ms total)
T2120 000:344 JLINK_Go() -- CPU_ReadMem(4 bytes @ 0xE0001000) (0002ms, 0225ms total)
T2120 000:346 JLINK_IsHalted()  returns FALSE (0001ms, 0226ms total)
T2120 000:353 JLINK_IsHalted() -- CPU_ReadMem(2 bytes @ 0x20000000)  returns TRUE (0003ms, 0228ms total)
T2120 000:356 JLINK_ReadReg(R15 (PC))  returns 0x20000000 (0000ms, 0225ms total)
T2120 000:356 JLINK_ClrBPEx(BPHandle = 0x00000007)  returns 0x00 (0000ms, 0225ms total)
T2120 000:356 JLINK_ReadReg(R0)  returns 0x00000000 (0000ms, 0225ms total)
T2120 000:356 JLINK_WriteReg(R0, 0x08000300)  returns 0x00 (0000ms, 0225ms total)
T2120 000:356 JLINK_WriteReg(R1, 0x00000100)  returns 0x00 (0000ms, 0225ms total)
T2120 000:356 JLINK_WriteReg(R2, 0x00000000)  returns 0x00 (0000ms, 0225ms total)
T2120 000:356 JLINK_WriteReg(R3, 0x00000000)  returns 0x00 (0000ms, 0225ms total)
T2120 000:356 JLINK_WriteReg(R4, 0x00000000)  returns 0x00 (0000ms, 0225ms total)
T2120 000:356 JLINK_WriteReg(R5, 0x00000000)  returns 0x00 (0000ms, 0225ms total)
T2120 000:356 JLINK_WriteReg(R6, 0x00000000)  returns 0x00 (0000ms, 0225ms total)
T2120 000:356 JLINK_WriteReg(R7, 0x00000000)  returns 0x00 (0000ms, 0225ms total)
T2120 000:356 JLINK_WriteReg(R8, 0x00000000)  returns 0x00 (0000ms, 0225ms total)
T2120 000:356 JLINK_WriteReg(R9, 0x20000214)  returns 0x00 (0000ms, 0225ms total)
T2120 000:356 JLINK_WriteReg(R10, 0x00000000)  returns 0x00 (0000ms, 0225ms total)
T2120 000:356 JLINK_WriteReg(R11, 0x00000000)  returns 0x00 (0000ms, 0225ms total)
T2120 000:356 JLINK_WriteReg(R12, 0x00000000)  returns 0x00 (0000ms, 0225ms total)
T2120 000:356 JLINK_WriteReg(R13 (SP), 0x20001000)  returns 0x00 (0000ms, 0225ms total)
T2120 000:356 JLINK_WriteReg(R14, 0x20000001)  returns 0x00 (0000ms, 0225ms total)
T2120 000:356 JLINK_WriteReg(R15 (PC), 0x200000FA)  returns 0x00 (0000ms, 0225ms total)
T2120 000:356 JLINK_WriteReg(XPSR, 0x01000000)  returns 0x00 (0000ms, 0225ms total)
T2120 000:356 JLINK_WriteReg(MSP, 0x20001000)  returns 0x00 (0000ms, 0225ms total)
T2120 000:356 JLINK_WriteReg(PSP, 0x20001000)  returns 0x00 (0000ms, 0225ms total)
T2120 000:356 JLINK_WriteReg(CFBP, 0x00000000)  returns 0x00 (0000ms, 0225ms total)
T2120 000:356 JLINK_SetBPEx(Addr = 0x20000000, Type = 0xFFFFFFF2)  returns 0x00000008 (0000ms, 0225ms total)
T2120 000:356 JLINK_Go() -- CPU_ReadMem(4 bytes @ 0xE0001000) (0002ms, 0227ms total)
T2120 000:359 JLINK_IsHalted() -- CPU_ReadMem(2 bytes @ 0x20000000)  returns TRUE (0003ms, 0230ms total)
T2120 000:362 JLINK_ReadReg(R15 (PC))  returns 0x20000000 (0000ms, 0227ms total)
T2120 000:362 JLINK_ClrBPEx(BPHandle = 0x00000008)  returns 0x00 (0000ms, 0227ms total)
T2120 000:362 JLINK_ReadReg(R0)  returns 0x00000001 (0000ms, 0227ms total)
T2120 000:362 JLINK_WriteReg(R0, 0x08000300)  returns 0x00 (0000ms, 0227ms total)
T2120 000:362 JLINK_WriteReg(R1, 0x00000100)  returns 0x00 (0000ms, 0227ms total)
T2120 000:362 JLINK_WriteReg(R2, 0x00000000)  returns 0x00 (0000ms, 0227ms total)
T2120 000:362 JLINK_WriteReg(R3, 0x00000000)  returns 0x00 (0000ms, 0227ms total)
T2120 000:362 JLINK_WriteReg(R4, 0x00000000)  returns 0x00 (0000ms, 0227ms total)
T2120 000:362 JLINK_WriteReg(R5, 0x00000000)  returns 0x00 (0000ms, 0227ms total)
T2120 000:362 JLINK_WriteReg(R6, 0x00000000)  returns 0x00 (0000ms, 0227ms total)
T2120 000:362 JLINK_WriteReg(R7, 0x00000000)  returns 0x00 (0000ms, 0227ms total)
T2120 000:362 JLINK_WriteReg(R8, 0x00000000)  returns 0x00 (0000ms, 0227ms total)
T2120 000:362 JLINK_WriteReg(R9, 0x20000214)  returns 0x00 (0000ms, 0227ms total)
T2120 000:362 JLINK_WriteReg(R10, 0x00000000)  returns 0x00 (0000ms, 0227ms total)
T2120 000:362 JLINK_WriteReg(R11, 0x00000000)  returns 0x00 (0000ms, 0227ms total)
T2120 000:362 JLINK_WriteReg(R12, 0x00000000)  returns 0x00 (0000ms, 0227ms total)
T2120 000:362 JLINK_WriteReg(R13 (SP), 0x20001000)  returns 0x00 (0000ms, 0227ms total)
T2120 000:362 JLINK_WriteReg(R14, 0x20000001)  returns 0x00 (0000ms, 0227ms total)
T2120 000:362 JLINK_WriteReg(R15 (PC), 0x200000A8)  returns 0x00 (0000ms, 0227ms total)
T2120 000:362 JLINK_WriteReg(XPSR, 0x01000000)  returns 0x00 (0000ms, 0227ms total)
T2120 000:362 JLINK_WriteReg(MSP, 0x20001000)  returns 0x00 (0000ms, 0227ms total)
T2120 000:362 JLINK_WriteReg(PSP, 0x20001000)  returns 0x00 (0000ms, 0227ms total)
T2120 000:362 JLINK_WriteReg(CFBP, 0x00000000)  returns 0x00 (0000ms, 0227ms total)
T2120 000:362 JLINK_SetBPEx(Addr = 0x20000000, Type = 0xFFFFFFF2)  returns 0x00000009 (0000ms, 0227ms total)
T2120 000:362 JLINK_Go() -- CPU_ReadMem(4 bytes @ 0xE0001000) (0002ms, 0229ms total)
T2120 000:364 JLINK_IsHalted()  returns FALSE (0000ms, 0229ms total)
T2120 000:367 JLINK_IsHalted() -- CPU_ReadMem(2 bytes @ 0x20000000)  returns TRUE (0002ms, 0231ms total)
T2120 000:369 JLINK_ReadReg(R15 (PC))  returns 0x20000000 (0000ms, 0229ms total)
T2120 000:369 JLINK_ClrBPEx(BPHandle = 0x00000009)  returns 0x00 (0000ms, 0229ms total)
T2120 000:369 JLINK_ReadReg(R0)  returns 0x00000000 (0000ms, 0229ms total)
T2120 000:370 JLINK_WriteReg(R0, 0x08000400)  returns 0x00 (0000ms, 0229ms total)
T2120 000:370 JLINK_WriteReg(R1, 0x00000100)  returns 0x00 (0000ms, 0229ms total)
T2120 000:370 JLINK_WriteReg(R2, 0x00000000)  returns 0x00 (0000ms, 0229ms total)
T2120 000:370 JLINK_WriteReg(R3, 0x00000000)  returns 0x00 (0000ms, 0229ms total)
T2120 000:370 JLINK_WriteReg(R4, 0x00000000)  returns 0x00 (0000ms, 0229ms total)
T2120 000:370 JLINK_WriteReg(R5, 0x00000000)  returns 0x00 (0000ms, 0229ms total)
T2120 000:370 JLINK_WriteReg(R6, 0x00000000)  returns 0x00 (0000ms, 0229ms total)
T2120 000:370 JLINK_WriteReg(R7, 0x00000000)  returns 0x00 (0000ms, 0229ms total)
T2120 000:370 JLINK_WriteReg(R8, 0x00000000)  returns 0x00 (0000ms, 0229ms total)
T2120 000:370 JLINK_WriteReg(R9, 0x20000214)  returns 0x00 (0000ms, 0229ms total)
T2120 000:370 JLINK_WriteReg(R10, 0x00000000)  returns 0x00 (0000ms, 0229ms total)
T2120 000:370 JLINK_WriteReg(R11, 0x00000000)  returns 0x00 (0000ms, 0229ms total)
T2120 000:370 JLINK_WriteReg(R12, 0x00000000)  returns 0x00 (0000ms, 0229ms total)
T2120 000:370 JLINK_WriteReg(R13 (SP), 0x20001000)  returns 0x00 (0000ms, 0229ms total)
T2120 000:370 JLINK_WriteReg(R14, 0x20000001)  returns 0x00 (0000ms, 0229ms total)
T2120 000:370 JLINK_WriteReg(R15 (PC), 0x200000FA)  returns 0x00 (0000ms, 0229ms total)
T2120 000:370 JLINK_WriteReg(XPSR, 0x01000000)  returns 0x00 (0000ms, 0229ms total)
T2120 000:370 JLINK_WriteReg(MSP, 0x20001000)  returns 0x00 (0000ms, 0229ms total)
T2120 000:370 JLINK_WriteReg(PSP, 0x20001000)  returns 0x00 (0000ms, 0229ms total)
T2120 000:370 JLINK_WriteReg(CFBP, 0x00000000)  returns 0x00 (0000ms, 0229ms total)
T2120 000:370 JLINK_SetBPEx(Addr = 0x20000000, Type = 0xFFFFFFF2)  returns 0x0000000A (0000ms, 0229ms total)
T2120 000:370 JLINK_Go() -- CPU_ReadMem(4 bytes @ 0xE0001000) (0002ms, 0231ms total)
T2120 000:372 JLINK_IsHalted() -- CPU_ReadMem(2 bytes @ 0x20000000)  returns TRUE (0003ms, 0234ms total)
T2120 000:375 JLINK_ReadReg(R15 (PC))  returns 0x20000000 (0000ms, 0231ms total)
T2120 000:375 JLINK_ClrBPEx(BPHandle = 0x0000000A)  returns 0x00 (0000ms, 0231ms total)
T2120 000:375 JLINK_ReadReg(R0)  returns 0x00000001 (0000ms, 0231ms total)
T2120 000:375 JLINK_WriteReg(R0, 0x08000400)  returns 0x00 (0000ms, 0231ms total)
T2120 000:375 JLINK_WriteReg(R1, 0x00000100)  returns 0x00 (0000ms, 0231ms total)
T2120 000:375 JLINK_WriteReg(R2, 0x00000000)  returns 0x00 (0000ms, 0231ms total)
T2120 000:375 JLINK_WriteReg(R3, 0x00000000)  returns 0x00 (0000ms, 0231ms total)
T2120 000:375 JLINK_WriteReg(R4, 0x00000000)  returns 0x00 (0000ms, 0231ms total)
T2120 000:375 JLINK_WriteReg(R5, 0x00000000)  returns 0x00 (0000ms, 0231ms total)
T2120 000:375 JLINK_WriteReg(R6, 0x00000000)  returns 0x00 (0000ms, 0231ms total)
T2120 000:375 JLINK_WriteReg(R7, 0x00000000)  returns 0x00 (0000ms, 0231ms total)
T2120 000:375 JLINK_WriteReg(R8, 0x00000000)  returns 0x00 (0000ms, 0231ms total)
T2120 000:375 JLINK_WriteReg(R9, 0x20000214)  returns 0x00 (0000ms, 0231ms total)
T2120 000:375 JLINK_WriteReg(R10, 0x00000000)  returns 0x00 (0000ms, 0231ms total)
T2120 000:375 JLINK_WriteReg(R11, 0x00000000)  returns 0x00 (0000ms, 0231ms total)
T2120 000:375 JLINK_WriteReg(R12, 0x00000000)  returns 0x00 (0000ms, 0231ms total)
T2120 000:375 JLINK_WriteReg(R13 (SP), 0x20001000)  returns 0x00 (0000ms, 0231ms total)
T2120 000:375 JLINK_WriteReg(R14, 0x20000001)  returns 0x00 (0000ms, 0231ms total)
T2120 000:375 JLINK_WriteReg(R15 (PC), 0x200000A8)  returns 0x00 (0000ms, 0231ms total)
T2120 000:375 JLINK_WriteReg(XPSR, 0x01000000)  returns 0x00 (0000ms, 0231ms total)
T2120 000:375 JLINK_WriteReg(MSP, 0x20001000)  returns 0x00 (0000ms, 0231ms total)
T2120 000:375 JLINK_WriteReg(PSP, 0x20001000)  returns 0x00 (0000ms, 0231ms total)
T2120 000:375 JLINK_WriteReg(CFBP, 0x00000000)  returns 0x00 (0000ms, 0231ms total)
T2120 000:375 JLINK_SetBPEx(Addr = 0x20000000, Type = 0xFFFFFFF2)  returns 0x0000000B (0000ms, 0231ms total)
T2120 000:375 JLINK_Go() -- CPU_ReadMem(4 bytes @ 0xE0001000) (0003ms, 0234ms total)
T2120 000:378 JLINK_IsHalted()  returns FALSE (0000ms, 0234ms total)
T2120 000:384 JLINK_IsHalted() -- CPU_ReadMem(2 bytes @ 0x20000000)  returns TRUE (0003ms, 0237ms total)
T2120 000:387 JLINK_ReadReg(R15 (PC))  returns 0x20000000 (0000ms, 0234ms total)
T2120 000:387 JLINK_ClrBPEx(BPHandle = 0x0000000B)  returns 0x00 (0000ms, 0234ms total)
T2120 000:387 JLINK_ReadReg(R0)  returns 0x00000000 (0000ms, 0234ms total)
T2120 000:387 JLINK_WriteReg(R0, 0x08000500)  returns 0x00 (0000ms, 0234ms total)
T2120 000:387 JLINK_WriteReg(R1, 0x00000100)  returns 0x00 (0000ms, 0234ms total)
T2120 000:387 JLINK_WriteReg(R2, 0x00000000)  returns 0x00 (0000ms, 0234ms total)
T2120 000:387 JLINK_WriteReg(R3, 0x00000000)  returns 0x00 (0000ms, 0234ms total)
T2120 000:387 JLINK_WriteReg(R4, 0x00000000)  returns 0x00 (0000ms, 0234ms total)
T2120 000:387 JLINK_WriteReg(R5, 0x00000000)  returns 0x00 (0000ms, 0234ms total)
T2120 000:387 JLINK_WriteReg(R6, 0x00000000)  returns 0x00 (0000ms, 0234ms total)
T2120 000:387 JLINK_WriteReg(R7, 0x00000000)  returns 0x00 (0000ms, 0234ms total)
T2120 000:387 JLINK_WriteReg(R8, 0x00000000)  returns 0x00 (0000ms, 0234ms total)
T2120 000:387 JLINK_WriteReg(R9, 0x20000214)  returns 0x00 (0000ms, 0234ms total)
T2120 000:387 JLINK_WriteReg(R10, 0x00000000)  returns 0x00 (0000ms, 0234ms total)
T2120 000:387 JLINK_WriteReg(R11, 0x00000000)  returns 0x00 (0000ms, 0234ms total)
T2120 000:387 JLINK_WriteReg(R12, 0x00000000)  returns 0x00 (0000ms, 0234ms total)
T2120 000:387 JLINK_WriteReg(R13 (SP), 0x20001000)  returns 0x00 (0000ms, 0234ms total)
T2120 000:387 JLINK_WriteReg(R14, 0x20000001)  returns 0x00 (0000ms, 0234ms total)
T2120 000:387 JLINK_WriteReg(R15 (PC), 0x200000FA)  returns 0x00 (0000ms, 0234ms total)
T2120 000:387 JLINK_WriteReg(XPSR, 0x01000000)  returns 0x00 (0000ms, 0234ms total)
T2120 000:387 JLINK_WriteReg(MSP, 0x20001000)  returns 0x00 (0000ms, 0234ms total)
T2120 000:387 JLINK_WriteReg(PSP, 0x20001000)  returns 0x00 (0000ms, 0234ms total)
T2120 000:387 JLINK_WriteReg(CFBP, 0x00000000)  returns 0x00 (0000ms, 0234ms total)
T2120 000:387 JLINK_SetBPEx(Addr = 0x20000000, Type = 0xFFFFFFF2)  returns 0x0000000C (0000ms, 0234ms total)
T2120 000:387 JLINK_Go() -- CPU_ReadMem(4 bytes @ 0xE0001000) (0003ms, 0237ms total)
T2120 000:390 JLINK_IsHalted() -- CPU_ReadMem(2 bytes @ 0x20000000)  returns TRUE (0003ms, 0240ms total)
T2120 000:393 JLINK_ReadReg(R15 (PC))  returns 0x20000000 (0000ms, 0237ms total)
T2120 000:393 JLINK_ClrBPEx(BPHandle = 0x0000000C)  returns 0x00 (0000ms, 0237ms total)
T2120 000:393 JLINK_ReadReg(R0)  returns 0x00000001 (0000ms, 0237ms total)
T2120 000:393 JLINK_WriteReg(R0, 0x08000500)  returns 0x00 (0000ms, 0237ms total)
T2120 000:393 JLINK_WriteReg(R1, 0x00000100)  returns 0x00 (0000ms, 0237ms total)
T2120 000:393 JLINK_WriteReg(R2, 0x00000000)  returns 0x00 (0000ms, 0237ms total)
T2120 000:393 JLINK_WriteReg(R3, 0x00000000)  returns 0x00 (0000ms, 0237ms total)
T2120 000:393 JLINK_WriteReg(R4, 0x00000000)  returns 0x00 (0000ms, 0237ms total)
T2120 000:393 JLINK_WriteReg(R5, 0x00000000)  returns 0x00 (0000ms, 0237ms total)
T2120 000:393 JLINK_WriteReg(R6, 0x00000000)  returns 0x00 (0000ms, 0237ms total)
T2120 000:393 JLINK_WriteReg(R7, 0x00000000)  returns 0x00 (0000ms, 0237ms total)
T2120 000:393 JLINK_WriteReg(R8, 0x00000000)  returns 0x00 (0000ms, 0237ms total)
T2120 000:393 JLINK_WriteReg(R9, 0x20000214)  returns 0x00 (0000ms, 0237ms total)
T2120 000:393 JLINK_WriteReg(R10, 0x00000000)  returns 0x00 (0000ms, 0237ms total)
T2120 000:393 JLINK_WriteReg(R11, 0x00000000)  returns 0x00 (0000ms, 0237ms total)
T2120 000:393 JLINK_WriteReg(R12, 0x00000000)  returns 0x00 (0000ms, 0237ms total)
T2120 000:393 JLINK_WriteReg(R13 (SP), 0x20001000)  returns 0x00 (0000ms, 0237ms total)
T2120 000:393 JLINK_WriteReg(R14, 0x20000001)  returns 0x00 (0000ms, 0237ms total)
T2120 000:393 JLINK_WriteReg(R15 (PC), 0x200000A8)  returns 0x00 (0000ms, 0237ms total)
T2120 000:393 JLINK_WriteReg(XPSR, 0x01000000)  returns 0x00 (0000ms, 0237ms total)
T2120 000:393 JLINK_WriteReg(MSP, 0x20001000)  returns 0x00 (0000ms, 0237ms total)
T2120 000:393 JLINK_WriteReg(PSP, 0x20001000)  returns 0x00 (0000ms, 0237ms total)
T2120 000:393 JLINK_WriteReg(CFBP, 0x00000000)  returns 0x00 (0000ms, 0237ms total)
T2120 000:393 JLINK_SetBPEx(Addr = 0x20000000, Type = 0xFFFFFFF2)  returns 0x0000000D (0000ms, 0237ms total)
T2120 000:393 JLINK_Go() -- CPU_ReadMem(4 bytes @ 0xE0001000) (0002ms, 0239ms total)
T2120 000:395 JLINK_IsHalted()  returns FALSE (0001ms, 0240ms total)
T2120 000:402 JLINK_IsHalted() -- CPU_ReadMem(2 bytes @ 0x20000000)  returns TRUE (0003ms, 0242ms total)
T2120 000:405 JLINK_ReadReg(R15 (PC))  returns 0x20000000 (0000ms, 0239ms total)
T2120 000:405 JLINK_ClrBPEx(BPHandle = 0x0000000D)  returns 0x00 (0000ms, 0239ms total)
T2120 000:405 JLINK_ReadReg(R0)  returns 0x00000000 (0000ms, 0239ms total)
T2120 000:405 JLINK_WriteReg(R0, 0x08000600)  returns 0x00 (0000ms, 0239ms total)
T2120 000:405 JLINK_WriteReg(R1, 0x00000100)  returns 0x00 (0000ms, 0239ms total)
T2120 000:405 JLINK_WriteReg(R2, 0x00000000)  returns 0x00 (0000ms, 0239ms total)
T2120 000:405 JLINK_WriteReg(R3, 0x00000000)  returns 0x00 (0000ms, 0239ms total)
T2120 000:405 JLINK_WriteReg(R4, 0x00000000)  returns 0x00 (0000ms, 0239ms total)
T2120 000:405 JLINK_WriteReg(R5, 0x00000000)  returns 0x00 (0000ms, 0239ms total)
T2120 000:405 JLINK_WriteReg(R6, 0x00000000)  returns 0x00 (0000ms, 0239ms total)
T2120 000:405 JLINK_WriteReg(R7, 0x00000000)  returns 0x00 (0000ms, 0239ms total)
T2120 000:405 JLINK_WriteReg(R8, 0x00000000)  returns 0x00 (0000ms, 0239ms total)
T2120 000:405 JLINK_WriteReg(R9, 0x20000214)  returns 0x00 (0000ms, 0239ms total)
T2120 000:405 JLINK_WriteReg(R10, 0x00000000)  returns 0x00 (0000ms, 0239ms total)
T2120 000:405 JLINK_WriteReg(R11, 0x00000000)  returns 0x00 (0000ms, 0239ms total)
T2120 000:405 JLINK_WriteReg(R12, 0x00000000)  returns 0x00 (0000ms, 0239ms total)
T2120 000:405 JLINK_WriteReg(R13 (SP), 0x20001000)  returns 0x00 (0000ms, 0239ms total)
T2120 000:405 JLINK_WriteReg(R14, 0x20000001)  returns 0x00 (0000ms, 0239ms total)
T2120 000:405 JLINK_WriteReg(R15 (PC), 0x200000FA)  returns 0x00 (0000ms, 0239ms total)
T2120 000:405 JLINK_WriteReg(XPSR, 0x01000000)  returns 0x00 (0000ms, 0239ms total)
T2120 000:405 JLINK_WriteReg(MSP, 0x20001000)  returns 0x00 (0000ms, 0239ms total)
T2120 000:405 JLINK_WriteReg(PSP, 0x20001000)  returns 0x00 (0000ms, 0239ms total)
T2120 000:405 JLINK_WriteReg(CFBP, 0x00000000)  returns 0x00 (0000ms, 0239ms total)
T2120 000:405 JLINK_SetBPEx(Addr = 0x20000000, Type = 0xFFFFFFF2)  returns 0x0000000E (0000ms, 0239ms total)
T2120 000:405 JLINK_Go() -- CPU_ReadMem(4 bytes @ 0xE0001000) (0003ms, 0242ms total)
T2120 000:408 JLINK_IsHalted() -- CPU_ReadMem(2 bytes @ 0x20000000)  returns TRUE (0002ms, 0244ms total)
T2120 000:410 JLINK_ReadReg(R15 (PC))  returns 0x20000000 (0000ms, 0242ms total)
T2120 000:410 JLINK_ClrBPEx(BPHandle = 0x0000000E)  returns 0x00 (0000ms, 0242ms total)
T2120 000:410 JLINK_ReadReg(R0)  returns 0x00000001 (0000ms, 0242ms total)
T2120 000:410 JLINK_WriteReg(R0, 0x08000600)  returns 0x00 (0000ms, 0242ms total)
T2120 000:410 JLINK_WriteReg(R1, 0x00000100)  returns 0x00 (0000ms, 0242ms total)
T2120 000:410 JLINK_WriteReg(R2, 0x00000000)  returns 0x00 (0000ms, 0242ms total)
T2120 000:410 JLINK_WriteReg(R3, 0x00000000)  returns 0x00 (0000ms, 0242ms total)
T2120 000:410 JLINK_WriteReg(R4, 0x00000000)  returns 0x00 (0000ms, 0242ms total)
T2120 000:410 JLINK_WriteReg(R5, 0x00000000)  returns 0x00 (0000ms, 0242ms total)
T2120 000:410 JLINK_WriteReg(R6, 0x00000000)  returns 0x00 (0000ms, 0242ms total)
T2120 000:410 JLINK_WriteReg(R7, 0x00000000)  returns 0x00 (0000ms, 0242ms total)
T2120 000:410 JLINK_WriteReg(R8, 0x00000000)  returns 0x00 (0000ms, 0242ms total)
T2120 000:410 JLINK_WriteReg(R9, 0x20000214)  returns 0x00 (0000ms, 0242ms total)
T2120 000:410 JLINK_WriteReg(R10, 0x00000000)  returns 0x00 (0000ms, 0242ms total)
T2120 000:410 JLINK_WriteReg(R11, 0x00000000)  returns 0x00 (0000ms, 0242ms total)
T2120 000:410 JLINK_WriteReg(R12, 0x00000000)  returns 0x00 (0000ms, 0242ms total)
T2120 000:410 JLINK_WriteReg(R13 (SP), 0x20001000)  returns 0x00 (0000ms, 0242ms total)
T2120 000:410 JLINK_WriteReg(R14, 0x20000001)  returns 0x00 (0000ms, 0242ms total)
T2120 000:410 JLINK_WriteReg(R15 (PC), 0x200000A8)  returns 0x00 (0000ms, 0242ms total)
T2120 000:410 JLINK_WriteReg(XPSR, 0x01000000)  returns 0x00 (0000ms, 0242ms total)
T2120 000:410 JLINK_WriteReg(MSP, 0x20001000)  returns 0x00 (0000ms, 0242ms total)
T2120 000:410 JLINK_WriteReg(PSP, 0x20001000)  returns 0x00 (0000ms, 0242ms total)
T2120 000:410 JLINK_WriteReg(CFBP, 0x00000000)  returns 0x00 (0000ms, 0242ms total)
T2120 000:410 JLINK_SetBPEx(Addr = 0x20000000, Type = 0xFFFFFFF2)  returns 0x0000000F (0000ms, 0242ms total)
T2120 000:410 JLINK_Go() -- CPU_ReadMem(4 bytes @ 0xE0001000) (0002ms, 0244ms total)
T2120 000:412 JLINK_IsHalted()  returns FALSE (0001ms, 0245ms total)
T2120 000:417 JLINK_IsHalted() -- CPU_ReadMem(2 bytes @ 0x20000000)  returns TRUE (0004ms, 0248ms total)
T2120 000:421 JLINK_ReadReg(R15 (PC))  returns 0x20000000 (0000ms, 0244ms total)
T2120 000:421 JLINK_ClrBPEx(BPHandle = 0x0000000F)  returns 0x00 (0000ms, 0244ms total)
T2120 000:421 JLINK_ReadReg(R0)  returns 0x00000000 (0000ms, 0244ms total)
T2120 000:421 JLINK_WriteReg(R0, 0x08000700)  returns 0x00 (0000ms, 0244ms total)
T2120 000:421 JLINK_WriteReg(R1, 0x00000100)  returns 0x00 (0000ms, 0244ms total)
T2120 000:421 JLINK_WriteReg(R2, 0x00000000)  returns 0x00 (0000ms, 0244ms total)
T2120 000:421 JLINK_WriteReg(R3, 0x00000000)  returns 0x00 (0000ms, 0244ms total)
T2120 000:421 JLINK_WriteReg(R4, 0x00000000)  returns 0x00 (0000ms, 0244ms total)
T2120 000:421 JLINK_WriteReg(R5, 0x00000000)  returns 0x00 (0000ms, 0244ms total)
T2120 000:421 JLINK_WriteReg(R6, 0x00000000)  returns 0x00 (0000ms, 0244ms total)
T2120 000:421 JLINK_WriteReg(R7, 0x00000000)  returns 0x00 (0000ms, 0244ms total)
T2120 000:421 JLINK_WriteReg(R8, 0x00000000)  returns 0x00 (0000ms, 0244ms total)
T2120 000:421 JLINK_WriteReg(R9, 0x20000214)  returns 0x00 (0000ms, 0244ms total)
T2120 000:421 JLINK_WriteReg(R10, 0x00000000)  returns 0x00 (0000ms, 0244ms total)
T2120 000:421 JLINK_WriteReg(R11, 0x00000000)  returns 0x00 (0000ms, 0244ms total)
T2120 000:421 JLINK_WriteReg(R12, 0x00000000)  returns 0x00 (0000ms, 0244ms total)
T2120 000:421 JLINK_WriteReg(R13 (SP), 0x20001000)  returns 0x00 (0000ms, 0244ms total)
T2120 000:421 JLINK_WriteReg(R14, 0x20000001)  returns 0x00 (0000ms, 0244ms total)
T2120 000:421 JLINK_WriteReg(R15 (PC), 0x200000FA)  returns 0x00 (0000ms, 0244ms total)
T2120 000:421 JLINK_WriteReg(XPSR, 0x01000000)  returns 0x00 (0000ms, 0244ms total)
T2120 000:421 JLINK_WriteReg(MSP, 0x20001000)  returns 0x00 (0000ms, 0244ms total)
T2120 000:421 JLINK_WriteReg(PSP, 0x20001000)  returns 0x00 (0000ms, 0244ms total)
T2120 000:421 JLINK_WriteReg(CFBP, 0x00000000)  returns 0x00 (0000ms, 0244ms total)
T2120 000:421 JLINK_SetBPEx(Addr = 0x20000000, Type = 0xFFFFFFF2)  returns 0x00000010 (0000ms, 0244ms total)
T2120 000:421 JLINK_Go() -- CPU_ReadMem(4 bytes @ 0xE0001000) (0002ms, 0246ms total)
T2120 000:423 JLINK_IsHalted() -- CPU_ReadMem(2 bytes @ 0x20000000)  returns TRUE (0003ms, 0249ms total)
T2120 000:426 JLINK_ReadReg(R15 (PC))  returns 0x20000000 (0000ms, 0246ms total)
T2120 000:426 JLINK_ClrBPEx(BPHandle = 0x00000010)  returns 0x00 (0000ms, 0246ms total)
T2120 000:426 JLINK_ReadReg(R0)  returns 0x00000001 (0000ms, 0246ms total)
T2120 000:426 JLINK_WriteReg(R0, 0x08000700)  returns 0x00 (0000ms, 0246ms total)
T2120 000:426 JLINK_WriteReg(R1, 0x00000100)  returns 0x00 (0000ms, 0246ms total)
T2120 000:426 JLINK_WriteReg(R2, 0x00000000)  returns 0x00 (0000ms, 0246ms total)
T2120 000:426 JLINK_WriteReg(R3, 0x00000000)  returns 0x00 (0000ms, 0246ms total)
T2120 000:426 JLINK_WriteReg(R4, 0x00000000)  returns 0x00 (0000ms, 0246ms total)
T2120 000:426 JLINK_WriteReg(R5, 0x00000000)  returns 0x00 (0000ms, 0246ms total)
T2120 000:426 JLINK_WriteReg(R6, 0x00000000)  returns 0x00 (0000ms, 0246ms total)
T2120 000:426 JLINK_WriteReg(R7, 0x00000000)  returns 0x00 (0000ms, 0246ms total)
T2120 000:426 JLINK_WriteReg(R8, 0x00000000)  returns 0x00 (0000ms, 0246ms total)
T2120 000:426 JLINK_WriteReg(R9, 0x20000214)  returns 0x00 (0000ms, 0246ms total)
T2120 000:426 JLINK_WriteReg(R10, 0x00000000)  returns 0x00 (0000ms, 0246ms total)
T2120 000:426 JLINK_WriteReg(R11, 0x00000000)  returns 0x00 (0000ms, 0246ms total)
T2120 000:426 JLINK_WriteReg(R12, 0x00000000)  returns 0x00 (0000ms, 0246ms total)
T2120 000:426 JLINK_WriteReg(R13 (SP), 0x20001000)  returns 0x00 (0000ms, 0246ms total)
T2120 000:426 JLINK_WriteReg(R14, 0x20000001)  returns 0x00 (0000ms, 0246ms total)
T2120 000:426 JLINK_WriteReg(R15 (PC), 0x200000A8)  returns 0x00 (0000ms, 0246ms total)
T2120 000:426 JLINK_WriteReg(XPSR, 0x01000000)  returns 0x00 (0000ms, 0246ms total)
T2120 000:426 JLINK_WriteReg(MSP, 0x20001000)  returns 0x00 (0000ms, 0246ms total)
T2120 000:426 JLINK_WriteReg(PSP, 0x20001000)  returns 0x00 (0001ms, 0247ms total)
T2120 000:427 JLINK_WriteReg(CFBP, 0x00000000)  returns 0x00 (0000ms, 0247ms total)
T2120 000:427 JLINK_SetBPEx(Addr = 0x20000000, Type = 0xFFFFFFF2)  returns 0x00000011 (0000ms, 0247ms total)
T2120 000:427 JLINK_Go() -- CPU_ReadMem(4 bytes @ 0xE0001000) (0001ms, 0248ms total)
T2120 000:428 JLINK_IsHalted()  returns FALSE (0001ms, 0249ms total)
T2120 000:433 JLINK_IsHalted() -- CPU_ReadMem(2 bytes @ 0x20000000)  returns TRUE (0003ms, 0251ms total)
T2120 000:436 JLINK_ReadReg(R15 (PC))  returns 0x20000000 (0000ms, 0248ms total)
T2120 000:436 JLINK_ClrBPEx(BPHandle = 0x00000011)  returns 0x00 (0000ms, 0248ms total)
T2120 000:436 JLINK_ReadReg(R0)  returns 0x00000000 (0000ms, 0248ms total)
T2120 000:436 JLINK_WriteReg(R0, 0x08000800)  returns 0x00 (0000ms, 0248ms total)
T2120 000:436 JLINK_WriteReg(R1, 0x00000100)  returns 0x00 (0000ms, 0248ms total)
T2120 000:436 JLINK_WriteReg(R2, 0x00000000)  returns 0x00 (0000ms, 0248ms total)
T2120 000:436 JLINK_WriteReg(R3, 0x00000000)  returns 0x00 (0000ms, 0248ms total)
T2120 000:436 JLINK_WriteReg(R4, 0x00000000)  returns 0x00 (0000ms, 0248ms total)
T2120 000:436 JLINK_WriteReg(R5, 0x00000000)  returns 0x00 (0000ms, 0248ms total)
T2120 000:436 JLINK_WriteReg(R6, 0x00000000)  returns 0x00 (0000ms, 0248ms total)
T2120 000:436 JLINK_WriteReg(R7, 0x00000000)  returns 0x00 (0000ms, 0248ms total)
T2120 000:436 JLINK_WriteReg(R8, 0x00000000)  returns 0x00 (0000ms, 0248ms total)
T2120 000:436 JLINK_WriteReg(R9, 0x20000214)  returns 0x00 (0000ms, 0248ms total)
T2120 000:436 JLINK_WriteReg(R10, 0x00000000)  returns 0x00 (0000ms, 0248ms total)
T2120 000:436 JLINK_WriteReg(R11, 0x00000000)  returns 0x00 (0000ms, 0248ms total)
T2120 000:436 JLINK_WriteReg(R12, 0x00000000)  returns 0x00 (0000ms, 0248ms total)
T2120 000:436 JLINK_WriteReg(R13 (SP), 0x20001000)  returns 0x00 (0000ms, 0248ms total)
T2120 000:436 JLINK_WriteReg(R14, 0x20000001)  returns 0x00 (0000ms, 0248ms total)
T2120 000:436 JLINK_WriteReg(R15 (PC), 0x200000FA)  returns 0x00 (0000ms, 0248ms total)
T2120 000:436 JLINK_WriteReg(XPSR, 0x01000000)  returns 0x00 (0000ms, 0248ms total)
T2120 000:436 JLINK_WriteReg(MSP, 0x20001000)  returns 0x00 (0000ms, 0248ms total)
T2120 000:436 JLINK_WriteReg(PSP, 0x20001000)  returns 0x00 (0000ms, 0248ms total)
T2120 000:436 JLINK_WriteReg(CFBP, 0x00000000)  returns 0x00 (0000ms, 0248ms total)
T2120 000:436 JLINK_SetBPEx(Addr = 0x20000000, Type = 0xFFFFFFF2)  returns 0x00000012 (0000ms, 0248ms total)
T2120 000:436 JLINK_Go() -- CPU_ReadMem(4 bytes @ 0xE0001000) (0002ms, 0250ms total)
T2120 000:438 JLINK_IsHalted() -- CPU_ReadMem(2 bytes @ 0x20000000)  returns TRUE (0004ms, 0254ms total)
T2120 000:442 JLINK_ReadReg(R15 (PC))  returns 0x20000000 (0000ms, 0250ms total)
T2120 000:442 JLINK_ClrBPEx(BPHandle = 0x00000012)  returns 0x00 (0000ms, 0250ms total)
T2120 000:442 JLINK_ReadReg(R0)  returns 0x00000001 (0000ms, 0250ms total)
T2120 000:442 JLINK_WriteReg(R0, 0x08000800)  returns 0x00 (0000ms, 0250ms total)
T2120 000:442 JLINK_WriteReg(R1, 0x00000100)  returns 0x00 (0000ms, 0250ms total)
T2120 000:442 JLINK_WriteReg(R2, 0x00000000)  returns 0x00 (0000ms, 0250ms total)
T2120 000:442 JLINK_WriteReg(R3, 0x00000000)  returns 0x00 (0000ms, 0250ms total)
T2120 000:442 JLINK_WriteReg(R4, 0x00000000)  returns 0x00 (0000ms, 0250ms total)
T2120 000:442 JLINK_WriteReg(R5, 0x00000000)  returns 0x00 (0000ms, 0250ms total)
T2120 000:442 JLINK_WriteReg(R6, 0x00000000)  returns 0x00 (0000ms, 0250ms total)
T2120 000:442 JLINK_WriteReg(R7, 0x00000000)  returns 0x00 (0000ms, 0250ms total)
T2120 000:442 JLINK_WriteReg(R8, 0x00000000)  returns 0x00 (0000ms, 0250ms total)
T2120 000:442 JLINK_WriteReg(R9, 0x20000214)  returns 0x00 (0000ms, 0250ms total)
T2120 000:442 JLINK_WriteReg(R10, 0x00000000)  returns 0x00 (0000ms, 0250ms total)
